
T1B7C 000:264 SEGGER J-Link V4.50l Log File (0002ms, 0266ms total)
T1B7C 000:264 DLL Compiled: Jul  9 2012 15:02:49 (0002ms, 0266ms total)
T1B7C 000:264 Logging started @ 2017-07-02 18:30 (0002ms, 0266ms total)
T1B7C 000:266 JLINK_SetWarnOutHandler(...) (0000ms, 0266ms total)
T1B7C 000:266 JLINK_OpenEx(...)
Firmware: J-Link ARM V8 compiled Jun 19 2012 11:29:30
Hardware: V8.00  returns O.K. (0030ms, 0296ms total)
T1B7C 000:301 JLINK_SetErrorOutHandler(...) (0000ms, 0296ms total)
T1B7C 000:301 JLINK_ExecCommand("ProjectFile = "D:\PengJie\project2017\CAN\pro\JLinkSettings.ini"", ...)  returns 0x00 (0001ms, 0297ms total)
T1B7C 000:302 JLINK_ExecCommand("Device = STM32F103RE", ...)
                JLINK_ExecCommand("map ram 0x20000000 - 0x2000FFFF", ...)  returns 0x00 (0000ms, 0000ms total)
                JLINK_AddMirrorAreaEx(Addr = 0x00000000, Size = 0x00000000) (0000ms, 0000ms total)
              Device "STM32F103RE" selected (512 KB flash, 64 KB RAM).  returns 0x00 (0003ms, 0300ms total)
T1B7C 000:305 JLINK_ExecCommand("DisableConnectionTimeout", ...)  returns 0x00 (0000ms, 0300ms total)
T1B7C 000:305 JLINK_GetHardwareVersion()  returns 0x13880 (0000ms, 0300ms total)
T1B7C 000:305 JLINK_GetDLLVersion()  returns 45012 (0000ms, 0300ms total)
T1B7C 000:305 JLINK_GetFirmwareString(...) (0000ms, 0300ms total)
T1B7C 000:307 JLINK_GetDLLVersion()  returns 45012 (0000ms, 0300ms total)
T1B7C 000:307 JLINK_GetCompileDateTime() (0000ms, 0300ms total)
T1B7C 000:308 JLINK_GetFirmwareString(...) (0000ms, 0300ms total)
T1B7C 000:308 JLINK_GetHardwareVersion()  returns 0x13880 (0000ms, 0300ms total)
T1B7C 000:308 JLINK_TIF_Select(JLINKARM_TIF_JTAG)  returns 0x00 (0000ms, 0300ms total)
T1B7C 000:308 JLINK_SetSpeed(2000) (0000ms, 0300ms total)
T1B7C 000:308 JLINK_GetIdData(...) >0x2F8 JTAG>TotalIRLen = 9, IRPrint = 0x0011 >0x30 JTAG> >0x210 JTAG> >0x40 JTAG> >0x40 JTAG> >0x40 JTAG> >0x30 JTAG> >0x40 JTAG> >0x40 JTAG> >0x40 JTAG> >0x40 JTAG> >0x40 JTAG> >0x40 JTAG> >0x40 JTAG> >0x40 JTAG> >0x2F8 JTAG>TotalIRLen = 9, IRPrint = 0x0011 >0x30 JTAG> >0x210 JTAG> >0x80 JTAG> >0x40 JTAG> >0x40 JTAG> >0x50 JTAG> >0x40 JTAG> >0x40 JTAG> >0x40 JTAG> >0x50 JTAG> >0x40 JTAG> >0x50 JTAG> >0x40 JTAG> >0x40 JTAG> >0x40 JTAG> >0x40 JTAG> >0x30 JTAG>
 >0x40 JTAG> >0x50 JTAG> >0x40 JTAG> >0x38 JTAG> >0x80 JTAG> >0x40 JTAG> >0x40 JTAG> >0x50 JTAG> >0x40 JTAG> >0x40 JTAG> >0x40 JTAG> >0x50 JTAG> >0x40 JTAG> >0x40 JTAG> >0x30 JTAG> >0x40 JTAG> >0x40 JTAG> >0x40 JTAG> >0x40 JTAG> >0x40 JTAG> >0x50 JTAG> >0x40 JTAG> >0x80 JTAG> >0x40 JTAG> >0x30 JTAG> >0x40 JTAG> >0x40 JTAG> >0x40 JTAG> >0x40 JTAG> >0x40 JTAG> >0x50 JTAG> >0x40 JTAG> >0x80 JTAG> >0x40 JTAG> >0x30 JTAG> >0x40 JTAG> >0x50 JTAG> >0x40 JTAG> >0x40 JTAG> >0x40 JTAG> >0x30 JTAG> >0x40 JTAG>
 >0x50 JTAG> >0x40 JTAG>Found Cortex-M3 r1p1, Little endian. >0x50 JTAG> >0x50 JTAG> >0x40 JTAG> >0x40 JTAG> >0x30 JTAG> >0x30 JTAG> >0x50 JTAG> >0x40 JTAG> >0x80 JTAG> >0x40 JTAG> >0x30 JTAG> >0x40 JTAG> >0x50 JTAG> >0x40 JTAG> >0x40 JTAG> >0x40 JTAG> >0x30 JTAG> >0x40 JTAG> >0x50 JTAG> >0x40 JTAG>TPIU fitted. >0x40 JTAG> >0x40 JTAG> >0x30 JTAG> >0x40 JTAG> >0x50 JTAG> >0x40 JTAG>ETM fitted. >0x40 JTAG> >0x40 JTAG> >0x30 JTAG> >0x40 JTAG> >0x50 JTAG> >0x40 JTAG> >0x40 JTAG> >0x40 JTAG> >0x30 JTAG>
 >0x40 JTAG> >0x50 JTAG> >0x40 JTAG>FPUnit: 6 code (BP) slots and 2 literal slots >0x40 JTAG> >0x40 JTAG> >0x30 JTAG> >0x40 JTAG> >0x50 JTAG> >0x40 JTAG> >0x40 JTAG> >0x40 JTAG> >0x30 JTAG> >0x40 JTAG> >0x50 JTAG> >0x40 JTAG> ScanLen=9 NumDevices=2 aId[0]=0x3BA00477 aIrRead[0]=0 aScanLen[0]=0 aScanRead[0]=0 (0149ms, 0449ms total)
T1B7C 000:457 JLINK_JTAG_GetDeviceID(DeviceIndex = 0)  returns 0x3BA00477 (0000ms, 0449ms total)
T1B7C 000:457 JLINK_JTAG_GetDeviceInfo(DeviceIndex = 0)  returns 0x00 (0000ms, 0449ms total)
T1B7C 000:457 JLINK_JTAG_GetDeviceID(DeviceIndex = 1)  returns 0x6414041 (0000ms, 0449ms total)
T1B7C 000:457 JLINK_JTAG_GetDeviceInfo(DeviceIndex = 1)  returns 0x00 (0000ms, 0449ms total)
T1B7C 000:457 JLINK_GetDeviceFamily()  returns 3 (0000ms, 0449ms total)
T1B7C 000:458 JLINK_ReadMem (0xE00FFFF0, 0x0010 Bytes, ...) -- CPU is running -- CPU_ReadMem(16 bytes @ 0xE00FFFF0) -- Data:  0D 00 00 00 10 00 00 00 05 00 00 00 B1 00 00 00  returns 0x00 (0005ms, 0454ms total)
T1B7C 000:463 JLINK_ReadMem (0xE00FFFD0, 0x0020 Bytes, ...) -- CPU is running -- CPU_ReadMem(32 bytes @ 0xE00FFFD0) -- Data:  00 00 00 00 00 00 00 00 00 00 00 00 00 00 00 00 ...  returns 0x00 (0002ms, 0456ms total)
T1B7C 000:465 JLINK_ReadMem (0xE00FF000, 0x0018 Bytes, ...) -- CPU is running -- CPU_ReadMem(24 bytes @ 0xE00FF000) -- Data:  03 F0 F0 FF 03 20 F0 FF 03 30 F0 FF 03 10 F0 FF ...  returns 0x00 (0002ms, 0458ms total)
T1B7C 000:467 JLINK_ReadMemU32(0xE000ED00, 0x0001 Items, ...) -- CPU is running -- CPU_ReadMem(4 bytes @ 0xE000ED00) -- Data:  31 C2 1F 41  returns 0x01 (0002ms, 0460ms total)
T1B7C 000:469 JLINK_SetResetType(JLINKARM_RESET_TYPE_NORMAL)  returns JLINKARM_RESET_TYPE_NORMAL (0000ms, 0460ms total)
T1B7C 000:469 JLINK_Reset() >0x48 JTAG> >0x80 JTAG> >0x40 JTAG> >0x40 JTAG> >0x50 JTAG> >0x40 JTAG> >0x40 JTAG> >0x40 JTAG> >0x50 JTAG> >0x40 JTAG> >0x40 JTAG> >0x30 JTAG> >0x40 JTAG> >0x40 JTAG> >0x40 JTAG> >0x40 JTAG> >0x40 JTAG> >0x50 JTAG> >0x40 JTAG> >0x80 JTAG> >0x40 JTAG> >0x30 JTAG> >0x40 JTAG> >0x40 JTAG> >0x40 JTAG> >0x40 JTAG> >0x40 JTAG> >0x50 JTAG> >0x40 JTAG> >0x80 JTAG> >0x40 JTAG> >0x30 JTAG> >0x40 JTAG> >0x50 JTAG> >0x40 JTAG> >0x40 JTAG> >0x40 JTAG> >0x30 JTAG> >0x40 JTAG> >0x50 JTAG>
 >0x40 JTAG>Found Cortex-M3 r1p1, Little endian. >0x50 JTAG> >0x50 JTAG> >0x40 JTAG> >0x40 JTAG> >0x30 JTAG> >0x30 JTAG> >0x50 JTAG> >0x40 JTAG> >0x80 JTAG> >0x40 JTAG> >0x30 JTAG> >0x40 JTAG> >0x50 JTAG> >0x40 JTAG> >0x40 JTAG> >0x40 JTAG> >0x30 JTAG> >0x40 JTAG> >0x50 JTAG> >0x40 JTAG>TPIU fitted. >0x40 JTAG> >0x40 JTAG> >0x30 JTAG> >0x40 JTAG> >0x50 JTAG> >0x40 JTAG>ETM fitted. >0x40 JTAG> >0x40 JTAG> >0x30 JTAG> >0x40 JTAG> >0x50 JTAG> >0x40 JTAG> >0x40 JTAG> >0x40 JTAG> >0x30 JTAG> >0x40 JTAG>
 >0x50 JTAG> >0x40 JTAG>FPUnit: 6 code (BP) slots and 2 literal slots >0x40 JTAG> >0x40 JTAG> >0x30 JTAG> >0x40 JTAG> >0x50 JTAG> >0x40 JTAG> >0x40 JTAG> >0x40 JTAG> >0x30 JTAG> >0x40 JTAG> >0x50 JTAG> >0x40 JTAG> -- CPU is running -- CPU_WriteMem(4 bytes @ 0xE000EDF0) -- CPU is running -- CPU_WriteMem(4 bytes @ 0xE000EDFC) -- CPU is running -- CPU_WriteMem(4 bytes @ 0xE000ED0C) -- CPU is running -- CPU_ReadMem(4 bytes @ 0xE000EDF0) -- CPU is running -- CPU_ReadMem(4 bytes @ 0xE000EDF0) -- CPU is running
 -- CPU_WriteMem(4 bytes @ 0xE000EDF0) -- CPU is running -- CPU_WriteMem(4 bytes @ 0xE000EDFC) -- CPU is running -- CPU_ReadMem(4 bytes @ 0xE000EDF0) >0x90 JTAG> >0x40 JTAG> >0x30 JTAG> >0x40 JTAG> >0x50 JTAG> >0x40 JTAG> -- CPU_WriteMem(4 bytes @ 0xE000EDFC) -- CPU_WriteMem(4 bytes @ 0xE0001028) -- CPU_WriteMem(4 bytes @ 0xE0001038) -- CPU_WriteMem(4 bytes @ 0xE0001048) -- CPU_WriteMem(4 bytes @ 0xE0001058) -- CPU_WriteMem(4 bytes @ 0xE0002000) (0138ms, 0598ms total)
T1B7C 000:607 JLINK_ReadReg(R15)  returns 0x08000F1E (0000ms, 0598ms total)
T1B7C 000:607 JLINK_ReadReg(XPSR)  returns 0x01000000 (0000ms, 0598ms total)
T1B7C 000:607 JLINK_Halt()  returns 0x00 (0000ms, 0598ms total)
T1B7C 000:607 JLINK_IsHalted()  returns TRUE (0000ms, 0598ms total)
T1B7C 000:607 JLINK_ReadMemU32(0xE000EDF0, 0x0001 Items, ...) -- CPU_ReadMem(4 bytes @ 0xE000EDF0) -- Data:  03 00 03 00  returns 0x01 (0002ms, 0600ms total)
T1B7C 000:609 JLINK_WriteU32(0xE000EDF0, 0xA05F0003) -- CPU_WriteMem(4 bytes @ 0xE000EDF0)  returns 0x00 (0001ms, 0601ms total)
T1B7C 000:610 JLINK_WriteU32(0xE000EDFC, 0x01000000) -- CPU_WriteMem(4 bytes @ 0xE000EDFC)  returns 0x00 (0002ms, 0603ms total)
T1B7C 000:613 JLINK_GetHWStatus(...)  returns 0x00 (0001ms, 0604ms total)
T1B7C 000:614 JLINK_GetNumBPUnits(Type = 0xFFFFFF00)  returns 0x06 (0000ms, 0604ms total)
T1B7C 000:614 JLINK_GetNumBPUnits(Type = 0xF0)  returns 0x2000 (0000ms, 0604ms total)
T1B7C 000:614 JLINK_GetNumWPUnits()  returns 0x04 (0000ms, 0604ms total)
T1B7C 000:615 JLINK_GetSpeed()  returns 0x7D0 (0000ms, 0604ms total)
T1B7C 000:616 JLINK_ReadMemU32(0xE000E004, 0x0001 Items, ...) -- CPU_ReadMem(4 bytes @ 0xE000E004) -- Data:  01 00 00 00  returns 0x01 (0001ms, 0605ms total)
T1B7C 000:617 JLINK_ReadMemU32(0xE000E004, 0x0001 Items, ...) -- CPU_ReadMem(4 bytes @ 0xE000E004) -- Data:  01 00 00 00  returns 0x01 (0001ms, 0606ms total)
T1B7C 000:618 JLINK_WriteMem(0xE0001000, 0x001C Bytes, ...) -- Data:  01 00 00 00 00 00 00 00 00 00 00 00 00 00 00 00 ... -- CPU_WriteMem(28 bytes @ 0xE0001000)  returns 0x1C (0002ms, 0608ms total)
T1B7C 000:620 JLINK_ReadMem (0xE0001000, 0x001C Bytes, ...) -- CPU_ReadMem(28 bytes @ 0xE0001000) -- Data:  01 00 00 40 00 00 00 00 00 00 00 00 00 00 00 00 ...  returns 0x00 (0002ms, 0610ms total)
T1B7C 000:622 JLINK_ReadReg(R15)  returns 0x08000F1E (0000ms, 0610ms total)
T1B7C 000:623 JLINK_ReadReg(XPSR)  returns 0x01000000 (0000ms, 0611ms total)
T1B7C 000:712 JLINK_SetResetType(JLINKARM_RESET_TYPE_NORMAL)  returns JLINKARM_RESET_TYPE_NORMAL (0000ms, 0611ms total)
T1B7C 000:712 JLINK_Reset() >0x38 JTAG> >0x80 JTAG> >0x40 JTAG> >0x40 JTAG> >0x50 JTAG> >0x40 JTAG> >0x40 JTAG> >0x40 JTAG> >0x50 JTAG> >0x40 JTAG> >0x40 JTAG> >0x30 JTAG> >0x40 JTAG> >0x40 JTAG> >0x40 JTAG> >0x40 JTAG> >0x40 JTAG> >0x50 JTAG> >0x40 JTAG> >0x80 JTAG> >0x40 JTAG> >0x30 JTAG> >0x40 JTAG> >0x40 JTAG> >0x40 JTAG> >0x40 JTAG> >0x40 JTAG> >0x50 JTAG> >0x40 JTAG> >0x80 JTAG> >0x40 JTAG> >0x30 JTAG> >0x40 JTAG> >0x50 JTAG> >0x40 JTAG> >0x40 JTAG> >0x40 JTAG> >0x30 JTAG> >0x40 JTAG> >0x50 JTAG>
 >0x40 JTAG>Found Cortex-M3 r1p1, Little endian. >0x50 JTAG> >0x50 JTAG> >0x40 JTAG> >0x40 JTAG> >0x30 JTAG> >0x30 JTAG> >0x50 JTAG> >0x40 JTAG> >0x80 JTAG> >0x40 JTAG> >0x30 JTAG> >0x40 JTAG> >0x50 JTAG> >0x40 JTAG> >0x40 JTAG> >0x40 JTAG> >0x30 JTAG> >0x40 JTAG> >0x50 JTAG> >0x40 JTAG>TPIU fitted. >0x40 JTAG> >0x40 JTAG> >0x30 JTAG> >0x40 JTAG> >0x50 JTAG> >0x40 JTAG>ETM fitted. >0x40 JTAG> >0x40 JTAG> >0x30 JTAG> >0x40 JTAG> >0x50 JTAG> >0x40 JTAG> >0x40 JTAG> >0x40 JTAG> >0x30 JTAG> >0x40 JTAG>
 >0x50 JTAG> >0x40 JTAG>FPUnit: 6 code (BP) slots and 2 literal slots >0x40 JTAG> >0x40 JTAG> >0x30 JTAG> >0x40 JTAG> >0x50 JTAG> >0x40 JTAG> >0x40 JTAG> >0x40 JTAG> >0x30 JTAG> >0x40 JTAG> >0x50 JTAG> >0x40 JTAG> -- CPU_WriteMem(4 bytes @ 0xE000EDF0) -- CPU_WriteMem(4 bytes @ 0xE000EDFC) -- CPU_WriteMem(4 bytes @ 0xE000ED0C) -- CPU_ReadMem(4 bytes @ 0xE000EDF0) -- CPU_ReadMem(4 bytes @ 0xE000EDF0) -- CPU_WriteMem(4 bytes @ 0xE000EDF0) -- CPU_WriteMem(4 bytes @ 0xE000EDFC) -- CPU is running
 -- CPU_ReadMem(4 bytes @ 0xE000EDF0) >0x90 JTAG> >0x40 JTAG> >0x30 JTAG> >0x40 JTAG> >0x50 JTAG> >0x40 JTAG> -- CPU_WriteMem(4 bytes @ 0xE000EDFC) -- CPU_WriteMem(4 bytes @ 0xE0001028) -- CPU_WriteMem(4 bytes @ 0xE0001038) -- CPU_WriteMem(4 bytes @ 0xE0001048) -- CPU_WriteMem(4 bytes @ 0xE0001058) -- CPU_WriteMem(4 bytes @ 0xE0002000) (0132ms, 0743ms total)
T1B7C 000:844 JLINK_ReadReg(R15)  returns 0x08000F1E (0001ms, 0744ms total)
T1B7C 000:845 JLINK_ReadReg(XPSR)  returns 0x01000000 (0000ms, 0744ms total)
T1B7C 000:845 JLINK_ReadMem (0x08000F1C, 0x003C Bytes, ...) -- CPU_ReadMem(128 bytes @ 0x08000F00) -- Updating C cache (128 bytes @ 0x08000F00) -- Read from C cache (60 bytes @ 0x08000F1C) -- Data:  70 47 0A 48 80 47 0A 48 00 47 FE E7 FE E7 FE E7 ...  returns 0x00 (0003ms, 0747ms total)
T1A98 001:999 JLINK_SetBPEx(Addr = 0x08000BB4, Type = 0xFFFFFFF2)  returns 0x00000001 (0001ms, 0748ms total)
T1A98 002:000 JLINK_SetBPEx(Addr = 0x08000A24, Type = 0xFFFFFFF2)  returns 0x00000002 (0000ms, 0748ms total)
T1A98 002:000 JLINK_SetBPEx(Addr = 0x080009D8, Type = 0xFFFFFFF2)  returns 0x00000003 (0000ms, 0748ms total)
T1A98 002:000 JLINK_Go() -- CPU_WriteMem(4 bytes @ 0xE0002008) -- CPU_WriteMem(4 bytes @ 0xE000200C) -- CPU_WriteMem(4 bytes @ 0xE0002010) -- CPU_WriteMem(4 bytes @ 0xE0002014) -- CPU_WriteMem(4 bytes @ 0xE0002018) -- CPU_WriteMem(4 bytes @ 0xE000201C) (0008ms, 0756ms total)
T1A98 002:108 JLINK_IsHalted()  returns TRUE (0005ms, 0761ms total)
T1A98 002:113 JLINK_Halt()  returns 0x00 (0000ms, 0756ms total)
T1A98 002:113 JLINK_IsHalted()  returns TRUE (0000ms, 0756ms total)
T1A98 002:113 JLINK_IsHalted()  returns TRUE (0000ms, 0756ms total)
T1A98 002:113 JLINK_IsHalted()  returns TRUE (0000ms, 0756ms total)
T1A98 002:113 JLINK_ReadReg(R15)  returns 0x08000BB4 (0000ms, 0756ms total)
T1A98 002:113 JLINK_ReadReg(XPSR)  returns 0x21000000 (0000ms, 0756ms total)
T1A98 002:113 JLINK_ClrBPEx(BPHandle = 0x00000001)  returns 0x00 (0000ms, 0756ms total)
T1A98 002:113 JLINK_ClrBPEx(BPHandle = 0x00000002)  returns 0x00 (0000ms, 0756ms total)
T1A98 002:113 JLINK_ClrBPEx(BPHandle = 0x00000003)  returns 0x00 (0000ms, 0756ms total)
T1A98 002:113 JLINK_ReadMemU32(0xE000ED30, 0x0001 Items, ...) -- CPU_ReadMem(4 bytes @ 0xE000ED30) -- Data:  03 00 00 00  returns 0x01 (0001ms, 0757ms total)
T1A98 002:114 JLINK_ReadMemU32(0xE0001028, 0x0001 Items, ...) -- CPU_ReadMem(4 bytes @ 0xE0001028) -- Data:  00 00 00 00  returns 0x01 (0002ms, 0759ms total)
T1A98 002:116 JLINK_ReadMemU32(0xE0001038, 0x0001 Items, ...) -- CPU_ReadMem(4 bytes @ 0xE0001038) -- Data:  00 02 00 00  returns 0x01 (0001ms, 0760ms total)
T1A98 002:117 JLINK_ReadMemU32(0xE0001048, 0x0001 Items, ...) -- CPU_ReadMem(4 bytes @ 0xE0001048) -- Data:  00 00 00 00  returns 0x01 (0001ms, 0761ms total)
T1A98 002:118 JLINK_ReadMemU32(0xE0001058, 0x0001 Items, ...) -- CPU_ReadMem(4 bytes @ 0xE0001058) -- Data:  00 00 00 00  returns 0x01 (0001ms, 0762ms total)
T1A98 002:119 JLINK_ReadReg(R0)  returns 0x20001588 (0000ms, 0762ms total)
T1A98 002:119 JLINK_ReadReg(R1)  returns 0x20001988 (0000ms, 0762ms total)
T1A98 002:119 JLINK_ReadReg(R2)  returns 0x20001988 (0000ms, 0762ms total)
T1A98 002:119 JLINK_ReadReg(R3)  returns 0x20001988 (0000ms, 0762ms total)
T1A98 002:119 JLINK_ReadReg(R4)  returns 0x00000000 (0000ms, 0762ms total)
T1A98 002:119 JLINK_ReadReg(R5)  returns 0x20001524 (0000ms, 0762ms total)
T1A98 002:119 JLINK_ReadReg(R6)  returns 0x00000000 (0000ms, 0762ms total)
T1A98 002:119 JLINK_ReadReg(R7)  returns 0x00000000 (0000ms, 0762ms total)
T1A98 002:119 JLINK_ReadReg(R8)  returns 0x00000000 (0000ms, 0762ms total)
T1A98 002:119 JLINK_ReadReg(R9)  returns 0x20000160 (0000ms, 0762ms total)
T1A98 002:119 JLINK_ReadReg(R10)  returns 0x08002394 (0000ms, 0762ms total)
T1A98 002:119 JLINK_ReadReg(R11)  returns 0x00000000 (0000ms, 0762ms total)
T1A98 002:119 JLINK_ReadReg(R12)  returns 0x20001564 (0000ms, 0762ms total)
T1A98 002:119 JLINK_ReadReg(R13)  returns 0x20001D88 (0000ms, 0762ms total)
T1A98 002:119 JLINK_ReadReg(R14)  returns 0x08000203 (0000ms, 0762ms total)
T1A98 002:119 JLINK_ReadReg(R15)  returns 0x08000BB4 (0000ms, 0762ms total)
T1A98 002:119 JLINK_ReadReg(XPSR)  returns 0x21000000 (0000ms, 0762ms total)
T1A98 002:119 JLINK_ReadReg(MSP)  returns 0x20001D88 (0000ms, 0762ms total)
T1A98 002:119 JLINK_ReadReg(PSP)  returns 0x20000800 (0000ms, 0762ms total)
T1A98 002:119 JLINK_ReadReg(CFBP)  returns 0x00000000 (0000ms, 0762ms total)
T1B7C 002:120 JLINK_ReadMem (0x00000000, 0x0004 Bytes, ...)
                JLINK_ReadMemHW(0x00000000, 0x0004 Bytes, ...) -- CPU_ReadMem(4 bytes @ 0x00000000) -- Data:  00 04 00 20  returns 0x00 (0001ms, 0001ms total)
                JLINK_ReadMemHW(0x08000000, 0x0004 Bytes, ...) -- CPU_ReadMem(4 bytes @ 0x08000000) -- Data:  00 04 00 20  returns 0x00 (0001ms, 0002ms total)
                JLINK_WriteMemHW(0x00000000, 0x0004 Bytes, ...) -- Data:  01 00 01 00 -- CPU_WriteMem(4 bytes @ 0x00000000)  returns 0x04 (0001ms, 0003ms total)
                JLINK_ReadMemHW(0x00000000, 0x0004 Bytes, ...) -- CPU_ReadMem(4 bytes @ 0x00000000) -- Data:  00 04 00 20  returns 0x00 (0001ms, 0004ms total)
               -- MA0 is in flash -- Unmirror addr 0x00000000 -- CPU_ReadMem(64 bytes @ 0x08000000) -- Updating C cache (64 bytes @ 0x08000000) -- Read from C cache (4 bytes @ 0x08000000) -- Data:  00 04 00 20  returns 0x00 (0006ms, 0768ms total)
T1B7C 002:131 JLINK_ReadMemU32(0xE0001004, 0x0001 Items, ...) -- CPU_ReadMem(4 bytes @ 0xE0001004) -- Data:  0A 40 01 00  returns 0x01 (0002ms, 0770ms total)
T1B7C 002:136 JLINK_ReadMem (0x08000BB0, 0x003C Bytes, ...) -- CPU_ReadMem(128 bytes @ 0x08000B80) -- Updating C cache (128 bytes @ 0x08000B80) -- Read from C cache (60 bytes @ 0x08000BB0) -- Data:  0C B0 10 BD 00 24 FF F7 34 FF 01 21 4D 48 00 F0 ...  returns 0x00 (0002ms, 0772ms total)
T1A98 002:963 JLINK_SetBPEx(Addr = 0x08000A24, Type = 0xFFFFFFF2)  returns 0x00000004 (0000ms, 0772ms total)
T1A98 002:963 JLINK_SetBPEx(Addr = 0x080009D8, Type = 0xFFFFFFF2)  returns 0x00000005 (0000ms, 0772ms total)
T1A98 002:963 JLINK_Go() -- CPU_WriteMem(4 bytes @ 0xE000200C) -- CPU_WriteMem(4 bytes @ 0xE0002008) -- CPU_WriteMem(4 bytes @ 0xE0002010) -- CPU_WriteMem(4 bytes @ 0xE000200C) -- CPU_WriteMem(4 bytes @ 0xE0002008) -- CPU_WriteMem(4 bytes @ 0xE000200C) -- CPU_WriteMem(4 bytes @ 0xE0002010) -- CPU_WriteMem(4 bytes @ 0xE0002014) -- CPU_WriteMem(4 bytes @ 0xE0002018) -- CPU_WriteMem(4 bytes @ 0xE000201C) -- Invalidate MA0 status (0013ms, 0785ms total)
T1A98 003:077 JLINK_IsHalted()  returns TRUE (0008ms, 0793ms total)
T1A98 003:085 JLINK_Halt()  returns 0x00 (0000ms, 0785ms total)
T1A98 003:085 JLINK_IsHalted()  returns TRUE (0000ms, 0785ms total)
T1A98 003:085 JLINK_IsHalted()  returns TRUE (0000ms, 0785ms total)
T1A98 003:085 JLINK_IsHalted()  returns TRUE (0000ms, 0785ms total)
T1A98 003:085 JLINK_ReadReg(R15)  returns 0x08000A24 (0000ms, 0785ms total)
T1A98 003:085 JLINK_ReadReg(XPSR)  returns 0x61000000 (0000ms, 0785ms total)
T1A98 003:086 JLINK_ClrBPEx(BPHandle = 0x00000004)  returns 0x00 (0000ms, 0785ms total)
T1A98 003:086 JLINK_ClrBPEx(BPHandle = 0x00000005)  returns 0x00 (0000ms, 0785ms total)
T1A98 003:086 JLINK_ReadMemU32(0xE000ED30, 0x0001 Items, ...) -- CPU_ReadMem(4 bytes @ 0xE000ED30) -- Data:  03 00 00 00  returns 0x01 (0001ms, 0786ms total)
T1A98 003:087 JLINK_ReadMemU32(0xE0001028, 0x0001 Items, ...) -- CPU_ReadMem(4 bytes @ 0xE0001028) -- Data:  00 00 00 00  returns 0x01 (0001ms, 0787ms total)
T1A98 003:088 JLINK_ReadMemU32(0xE0001038, 0x0001 Items, ...) -- CPU_ReadMem(4 bytes @ 0xE0001038) -- Data:  00 02 00 00  returns 0x01 (0005ms, 0792ms total)
T1A98 003:093 JLINK_ReadMemU32(0xE0001048, 0x0001 Items, ...) -- CPU_ReadMem(4 bytes @ 0xE0001048) -- Data:  00 00 00 00  returns 0x01 (0001ms, 0793ms total)
T1A98 003:094 JLINK_ReadMemU32(0xE0001058, 0x0001 Items, ...) -- CPU_ReadMem(4 bytes @ 0xE0001058) -- Data:  00 00 00 00  returns 0x01 (0001ms, 0794ms total)
T1A98 003:095 JLINK_ReadReg(R0)  returns 0x20001588 (0000ms, 0794ms total)
T1A98 003:095 JLINK_ReadReg(R1)  returns 0x20001988 (0000ms, 0794ms total)
T1A98 003:095 JLINK_ReadReg(R2)  returns 0x20001988 (0000ms, 0794ms total)
T1A98 003:095 JLINK_ReadReg(R3)  returns 0x20001988 (0000ms, 0794ms total)
T1A98 003:095 JLINK_ReadReg(R4)  returns 0x00000000 (0000ms, 0794ms total)
T1A98 003:095 JLINK_ReadReg(R5)  returns 0x20001524 (0000ms, 0794ms total)
T1A98 003:095 JLINK_ReadReg(R6)  returns 0x00000000 (0000ms, 0794ms total)
T1A98 003:095 JLINK_ReadReg(R7)  returns 0x00000000 (0000ms, 0794ms total)
T1A98 003:095 JLINK_ReadReg(R8)  returns 0x00000000 (0000ms, 0794ms total)
T1A98 003:095 JLINK_ReadReg(R9)  returns 0x20000160 (0000ms, 0794ms total)
T1A98 003:095 JLINK_ReadReg(R10)  returns 0x08002394 (0000ms, 0794ms total)
T1A98 003:095 JLINK_ReadReg(R11)  returns 0x00000000 (0000ms, 0794ms total)
T1A98 003:095 JLINK_ReadReg(R12)  returns 0x20001564 (0000ms, 0794ms total)
T1A98 003:095 JLINK_ReadReg(R13)  returns 0x20001D80 (0000ms, 0794ms total)
T1A98 003:095 JLINK_ReadReg(R14)  returns 0x08000BBB (0001ms, 0795ms total)
T1A98 003:096 JLINK_ReadReg(R15)  returns 0x08000A24 (0000ms, 0795ms total)
T1A98 003:096 JLINK_ReadReg(XPSR)  returns 0x61000000 (0000ms, 0795ms total)
T1A98 003:096 JLINK_ReadReg(MSP)  returns 0x20001D80 (0000ms, 0795ms total)
T1A98 003:096 JLINK_ReadReg(PSP)  returns 0x20000800 (0000ms, 0795ms total)
T1A98 003:096 JLINK_ReadReg(CFBP)  returns 0x00000000 (0000ms, 0795ms total)
T1B7C 003:096 JLINK_ReadMem (0x20001D84, 0x0004 Bytes, ...) -- CPU_ReadMem(64 bytes @ 0x20001D80) -- Updating C cache (64 bytes @ 0x20001D80) -- Read from C cache (4 bytes @ 0x20001D84) -- Data:  BB 0B 00 08  returns 0x00 (0001ms, 0796ms total)
T1B7C 003:098 JLINK_ReadMem (0x20001D80, 0x0004 Bytes, ...) -- Read from C cache (4 bytes @ 0x20001D80) -- Data:  00 00 00 00  returns 0x00 (0000ms, 0796ms total)
T1B7C 003:102 JLINK_ReadMemU32(0xE0001004, 0x0001 Items, ...) -- CPU_ReadMem(4 bytes @ 0xE0001004) -- Data:  14 40 01 00  returns 0x01 (0002ms, 0798ms total)
T1B7C 003:107 JLINK_ReadMem (0x08000A22, 0x0002 Bytes, ...) -- CPU_ReadMem(64 bytes @ 0x08000A00) -- Updating C cache (64 bytes @ 0x08000A00) -- Read from C cache (2 bytes @ 0x08000A22) -- Data:  10 B5  returns 0x00 (0001ms, 0799ms total)
T1B7C 003:108 JLINK_ReadMem (0x08000A24, 0x003C Bytes, ...) -- CPU_ReadMem(64 bytes @ 0x08000A40) -- Updating C cache (64 bytes @ 0x08000A40) -- Read from C cache (60 bytes @ 0x08000A24) -- Data:  FF F7 D5 FF FF F7 88 FF FF F7 B8 FF 10 BD 30 B5 ...  returns 0x00 (0002ms, 0801ms total)
T1A98 006:013 JLINK_SetBPEx(Addr = 0x080009D8, Type = 0xFFFFFFF2)  returns 0x00000006 (0001ms, 0802ms total)
T1A98 006:014 JLINK_Go() -- CPU_WriteMem(4 bytes @ 0xE000200C) -- CPU_WriteMem(4 bytes @ 0xE0002008) -- CPU_WriteMem(4 bytes @ 0xE0002008) -- CPU_WriteMem(4 bytes @ 0xE000200C) -- CPU_WriteMem(4 bytes @ 0xE0002010) -- CPU_WriteMem(4 bytes @ 0xE0002014) -- CPU_WriteMem(4 bytes @ 0xE0002018) -- CPU_WriteMem(4 bytes @ 0xE000201C) (0010ms, 0812ms total)
T1A98 006:124 JLINK_IsHalted()  returns TRUE (0006ms, 0818ms total)
T1A98 006:130 JLINK_Halt()  returns 0x00 (0000ms, 0812ms total)
T1A98 006:130 JLINK_IsHalted()  returns TRUE (0000ms, 0812ms total)
T1A98 006:130 JLINK_IsHalted()  returns TRUE (0000ms, 0812ms total)
T1A98 006:130 JLINK_IsHalted()  returns TRUE (0000ms, 0812ms total)
T1A98 006:130 JLINK_ReadReg(R15)  returns 0x080009D8 (0000ms, 0812ms total)
T1A98 006:130 JLINK_ReadReg(XPSR)  returns 0x61000000 (0000ms, 0812ms total)
T1A98 006:130 JLINK_ClrBPEx(BPHandle = 0x00000006)  returns 0x00 (0000ms, 0812ms total)
T1A98 006:130 JLINK_ReadMemU32(0xE000ED30, 0x0001 Items, ...) -- CPU_ReadMem(4 bytes @ 0xE000ED30) -- Data:  03 00 00 00  returns 0x01 (0002ms, 0814ms total)
T1A98 006:132 JLINK_ReadMemU32(0xE0001028, 0x0001 Items, ...) -- CPU_ReadMem(4 bytes @ 0xE0001028) -- Data:  00 00 00 00  returns 0x01 (0004ms, 0818ms total)
T1A98 006:136 JLINK_ReadMemU32(0xE0001038, 0x0001 Items, ...) -- CPU_ReadMem(4 bytes @ 0xE0001038) -- Data:  00 02 00 00  returns 0x01 (0001ms, 0819ms total)
T1A98 006:137 JLINK_ReadMemU32(0xE0001048, 0x0001 Items, ...) -- CPU_ReadMem(4 bytes @ 0xE0001048) -- Data:  00 00 00 00  returns 0x01 (0001ms, 0820ms total)
T1A98 006:138 JLINK_ReadMemU32(0xE0001058, 0x0001 Items, ...) -- CPU_ReadMem(4 bytes @ 0xE0001058) -- Data:  00 00 00 00  returns 0x01 (0002ms, 0822ms total)
T1A98 006:140 JLINK_ReadReg(R0)  returns 0x00000008 (0000ms, 0822ms total)
T1A98 006:140 JLINK_ReadReg(R1)  returns 0x40021000 (0000ms, 0822ms total)
T1A98 006:140 JLINK_ReadReg(R2)  returns 0x00000001 (0000ms, 0822ms total)
T1A98 006:140 JLINK_ReadReg(R3)  returns 0x00000013 (0000ms, 0822ms total)
T1A98 006:140 JLINK_ReadReg(R4)  returns 0x00000000 (0000ms, 0822ms total)
T1A98 006:140 JLINK_ReadReg(R5)  returns 0x20001524 (0000ms, 0822ms total)
T1A98 006:140 JLINK_ReadReg(R6)  returns 0x00000000 (0000ms, 0822ms total)
T1A98 006:140 JLINK_ReadReg(R7)  returns 0x00000000 (0000ms, 0822ms total)
T1A98 006:140 JLINK_ReadReg(R8)  returns 0x00000000 (0000ms, 0822ms total)
T1A98 006:140 JLINK_ReadReg(R9)  returns 0x20000160 (0000ms, 0822ms total)
T1A98 006:140 JLINK_ReadReg(R10)  returns 0x08002394 (0000ms, 0822ms total)
T1A98 006:140 JLINK_ReadReg(R11)  returns 0x00000000 (0000ms, 0822ms total)
T1A98 006:140 JLINK_ReadReg(R12)  returns 0x20001564 (0000ms, 0822ms total)
T1A98 006:140 JLINK_ReadReg(R13)  returns 0x20001D78 (0000ms, 0822ms total)
T1A98 006:140 JLINK_ReadReg(R14)  returns 0x08000EC5 (0000ms, 0822ms total)
T1A98 006:140 JLINK_ReadReg(R15)  returns 0x080009D8 (0000ms, 0822ms total)
T1A98 006:140 JLINK_ReadReg(XPSR)  returns 0x61000000 (0000ms, 0822ms total)
T1A98 006:141 JLINK_ReadReg(MSP)  returns 0x20001D78 (0000ms, 0822ms total)
T1A98 006:141 JLINK_ReadReg(PSP)  returns 0x20000800 (0000ms, 0822ms total)
T1A98 006:141 JLINK_ReadReg(CFBP)  returns 0x00000000 (0000ms, 0822ms total)
T1B7C 006:141 JLINK_ReadMem (0x20001D7C, 0x0004 Bytes, ...) -- CPU_ReadMem(64 bytes @ 0x20001D40) -- Updating C cache (64 bytes @ 0x20001D40) -- Read from C cache (4 bytes @ 0x20001D7C) -- Data:  29 0A 00 08  returns 0x00 (0002ms, 0824ms total)
T1B7C 006:143 JLINK_ReadMem (0x20001D78, 0x0004 Bytes, ...) -- Read from C cache (4 bytes @ 0x20001D78) -- Data:  00 00 00 00  returns 0x00 (0000ms, 0824ms total)
T1B7C 006:143 JLINK_ReadMem (0x20001D84, 0x0004 Bytes, ...) -- CPU_ReadMem(64 bytes @ 0x20001D80) -- Updating C cache (64 bytes @ 0x20001D80) -- Read from C cache (4 bytes @ 0x20001D84) -- Data:  BB 0B 00 08  returns 0x00 (0002ms, 0826ms total)
T1B7C 006:145 JLINK_ReadMem (0x20001D80, 0x0004 Bytes, ...) -- Read from C cache (4 bytes @ 0x20001D80) -- Data:  00 00 00 00  returns 0x00 (0000ms, 0826ms total)
T1B7C 006:155 JLINK_ReadMemU32(0xE0001004, 0x0001 Items, ...) -- CPU_ReadMem(4 bytes @ 0xE0001004) -- Data:  A7 47 01 00  returns 0x01 (0002ms, 0828ms total)
T1B7C 006:162 JLINK_ReadMem (0x080009D4, 0x003C Bytes, ...) -- CPU_ReadMem(128 bytes @ 0x080009C0) -- Updating C cache (128 bytes @ 0x080009C0) -- Read from C cache (60 bytes @ 0x080009D4) -- Data:  00 F0 77 FA 01 21 45 F2 7D 20 01 F0 1B FA 01 21 ...  returns 0x00 (0002ms, 0830ms total)
T1A98 014:492 JLINK_Step() -- Read from C cache (2 bytes @ 0x080009D8) -- Simulated  returns 0x00 (0010ms, 0840ms total)
T1A98 014:502 JLINK_ReadReg(R15)  returns 0x080009DA (0000ms, 0840ms total)
T1A98 014:502 JLINK_ReadReg(XPSR)  returns 0x21000000 (0000ms, 0840ms total)
T1A98 014:502 JLINK_Step() -- Read from C cache (2 bytes @ 0x080009DA) -- Read from C cache (2 bytes @ 0x080009DC) -- Not simulated -- CPU_WriteMem(4 bytes @ 0xE0002008) -- CPU_WriteMem(4 bytes @ 0xE000200C) -- CPU_WriteMem(4 bytes @ 0xE0002010) -- CPU_WriteMem(4 bytes @ 0xE0002014) -- CPU_WriteMem(4 bytes @ 0xE0002018) -- CPU_WriteMem(4 bytes @ 0xE000201C)  returns 0x00 (0017ms, 0857ms total)
T1A98 014:519 JLINK_ReadReg(R15)  returns 0x080009DE (0000ms, 0857ms total)
T1A98 014:519 JLINK_ReadReg(XPSR)  returns 0x21000000 (0000ms, 0857ms total)
T1A98 014:520 JLINK_Step() -- CPU_ReadMem(64 bytes @ 0x080009C0) -- Updating C cache (64 bytes @ 0x080009C0) -- Read from C cache (2 bytes @ 0x080009DE) -- Read from C cache (2 bytes @ 0x080009E0) -- Simulated  returns 0x00 (0002ms, 0859ms total)
T1A98 014:522 JLINK_ReadReg(R15)  returns 0x08001E18 (0000ms, 0859ms total)
T1A98 014:522 JLINK_ReadReg(XPSR)  returns 0x21000000 (0000ms, 0859ms total)
T1A98 014:522 JLINK_ReadReg(R0)  returns 0x0000527D (0000ms, 0859ms total)
T1A98 014:522 JLINK_ReadReg(R1)  returns 0x00000001 (0000ms, 0859ms total)
T1A98 014:522 JLINK_ReadReg(R2)  returns 0x00000001 (0000ms, 0859ms total)
T1A98 014:522 JLINK_ReadReg(R3)  returns 0x00000013 (0000ms, 0859ms total)
T1A98 014:522 JLINK_ReadReg(R4)  returns 0x00000000 (0000ms, 0859ms total)
T1A98 014:522 JLINK_ReadReg(R5)  returns 0x20001524 (0000ms, 0859ms total)
T1A98 014:522 JLINK_ReadReg(R6)  returns 0x00000000 (0000ms, 0859ms total)
T1A98 014:522 JLINK_ReadReg(R7)  returns 0x00000000 (0000ms, 0859ms total)
T1A98 014:522 JLINK_ReadReg(R8)  returns 0x00000000 (0000ms, 0859ms total)
T1A98 014:522 JLINK_ReadReg(R9)  returns 0x20000160 (0000ms, 0859ms total)
T1A98 014:522 JLINK_ReadReg(R10)  returns 0x08002394 (0000ms, 0859ms total)
T1A98 014:522 JLINK_ReadReg(R11)  returns 0x00000000 (0000ms, 0859ms total)
T1A98 014:522 JLINK_ReadReg(R12)  returns 0x20001564 (0000ms, 0859ms total)
T1A98 014:522 JLINK_ReadReg(R13)  returns 0x20001D78 (0000ms, 0859ms total)
T1A98 014:522 JLINK_ReadReg(R14)  returns 0x080009E3 (0000ms, 0859ms total)
T1A98 014:522 JLINK_ReadReg(R15)  returns 0x08001E18 (0000ms, 0859ms total)
T1A98 014:522 JLINK_ReadReg(XPSR)  returns 0x21000000 (0000ms, 0859ms total)
T1A98 014:522 JLINK_ReadReg(MSP)  returns 0x20001D78 (0000ms, 0859ms total)
T1A98 014:522 JLINK_ReadReg(PSP)  returns 0x20000800 (0000ms, 0859ms total)
T1A98 014:522 JLINK_ReadReg(CFBP)  returns 0x00000000 (0000ms, 0859ms total)
T1B7C 014:523 JLINK_ReadMem (0x20001D7C, 0x0004 Bytes, ...) -- CPU_ReadMem(64 bytes @ 0x20001D40) -- Updating C cache (64 bytes @ 0x20001D40) -- Read from C cache (4 bytes @ 0x20001D7C) -- Data:  29 0A 00 08  returns 0x00 (0001ms, 0860ms total)
T1B7C 014:524 JLINK_ReadMem (0x20001D78, 0x0004 Bytes, ...) -- Read from C cache (4 bytes @ 0x20001D78) -- Data:  00 00 00 00  returns 0x00 (0000ms, 0860ms total)
T1B7C 014:524 JLINK_ReadMem (0x20001D84, 0x0004 Bytes, ...) -- CPU_ReadMem(64 bytes @ 0x20001D80) -- Updating C cache (64 bytes @ 0x20001D80) -- Read from C cache (4 bytes @ 0x20001D84) -- Data:  BB 0B 00 08  returns 0x00 (0002ms, 0862ms total)
T1B7C 014:526 JLINK_ReadMem (0x20001D80, 0x0004 Bytes, ...) -- Read from C cache (4 bytes @ 0x20001D80) -- Data:  00 00 00 00  returns 0x00 (0000ms, 0862ms total)
T1B7C 014:538 JLINK_ReadMemU32(0xE0001004, 0x0001 Items, ...) -- CPU_ReadMem(4 bytes @ 0xE0001004) -- Data:  A8 47 01 00  returns 0x01 (0002ms, 0864ms total)
T1B7C 014:545 JLINK_ReadMem (0x08001E16, 0x0002 Bytes, ...) -- CPU_ReadMem(64 bytes @ 0x08001E00) -- Updating C cache (64 bytes @ 0x08001E00) -- Read from C cache (2 bytes @ 0x08001E16) -- Data:  70 47  returns 0x00 (0002ms, 0866ms total)
T1B7C 014:547 JLINK_ReadMem (0x08001E18, 0x003C Bytes, ...) -- CPU_ReadMem(64 bytes @ 0x08001E40) -- Updating C cache (64 bytes @ 0x08001E40) -- Read from C cache (60 bytes @ 0x08001E18) -- Data:  29 B1 28 4A 92 69 02 43 26 4B 9A 61 04 E0 25 4A ...  returns 0x00 (0002ms, 0868ms total)
T1A98 015:806 JLINK_Step() -- Read from C cache (2 bytes @ 0x08001E18) -- Simulated  returns 0x00 (0011ms, 0880ms total)
T1A98 015:817 JLINK_ReadReg(R15)  returns 0x08001E1A (0000ms, 0880ms total)
T1A98 015:817 JLINK_ReadReg(XPSR)  returns 0x21000000 (0000ms, 0880ms total)
T1A98 015:817 JLINK_ReadReg(R0)  returns 0x0000527D (0000ms, 0880ms total)
T1A98 015:817 JLINK_ReadReg(R1)  returns 0x00000001 (0000ms, 0880ms total)
T1A98 015:817 JLINK_ReadReg(R2)  returns 0x00000001 (0000ms, 0880ms total)
T1A98 015:817 JLINK_ReadReg(R3)  returns 0x00000013 (0000ms, 0880ms total)
T1A98 015:817 JLINK_ReadReg(R4)  returns 0x00000000 (0000ms, 0880ms total)
T1A98 015:818 JLINK_ReadReg(R5)  returns 0x20001524 (0000ms, 0881ms total)
T1A98 015:818 JLINK_ReadReg(R6)  returns 0x00000000 (0000ms, 0881ms total)
T1A98 015:818 JLINK_ReadReg(R7)  returns 0x00000000 (0000ms, 0881ms total)
T1A98 015:818 JLINK_ReadReg(R8)  returns 0x00000000 (0000ms, 0881ms total)
T1A98 015:818 JLINK_ReadReg(R9)  returns 0x20000160 (0000ms, 0881ms total)
T1A98 015:818 JLINK_ReadReg(R10)  returns 0x08002394 (0000ms, 0881ms total)
T1A98 015:818 JLINK_ReadReg(R11)  returns 0x00000000 (0000ms, 0881ms total)
T1A98 015:818 JLINK_ReadReg(R12)  returns 0x20001564 (0000ms, 0881ms total)
T1A98 015:818 JLINK_ReadReg(R13)  returns 0x20001D78 (0000ms, 0881ms total)
T1A98 015:818 JLINK_ReadReg(R14)  returns 0x080009E3 (0000ms, 0881ms total)
T1A98 015:818 JLINK_ReadReg(R15)  returns 0x08001E1A (0000ms, 0881ms total)
T1A98 015:818 JLINK_ReadReg(XPSR)  returns 0x21000000 (0000ms, 0881ms total)
T1A98 015:818 JLINK_ReadReg(MSP)  returns 0x20001D78 (0000ms, 0881ms total)
T1A98 015:818 JLINK_ReadReg(PSP)  returns 0x20000800 (0000ms, 0881ms total)
T1A98 015:818 JLINK_ReadReg(CFBP)  returns 0x00000000 (0000ms, 0881ms total)
T1B7C 015:819 JLINK_ReadMem (0x20001D7C, 0x0004 Bytes, ...) -- Read from C cache (4 bytes @ 0x20001D7C) -- Data:  29 0A 00 08  returns 0x00 (0000ms, 0881ms total)
T1B7C 015:819 JLINK_ReadMem (0x20001D78, 0x0004 Bytes, ...) -- Read from C cache (4 bytes @ 0x20001D78) -- Data:  00 00 00 00  returns 0x00 (0000ms, 0881ms total)
T1B7C 015:819 JLINK_ReadMem (0x20001D84, 0x0004 Bytes, ...) -- Read from C cache (4 bytes @ 0x20001D84) -- Data:  BB 0B 00 08  returns 0x00 (0000ms, 0881ms total)
T1B7C 015:819 JLINK_ReadMem (0x20001D80, 0x0004 Bytes, ...) -- Read from C cache (4 bytes @ 0x20001D80) -- Data:  00 00 00 00  returns 0x00 (0001ms, 0882ms total)
T1B7C 015:820 JLINK_ReadMemU32(0xE0001004, 0x0001 Items, ...) -- Data:  A8 47 01 00  returns 0x01 (0000ms, 0882ms total)
T1B7C 015:824 JLINK_ReadMem (0x08001E18, 0x003C Bytes, ...) -- Read from C cache (60 bytes @ 0x08001E18) -- Data:  29 B1 28 4A 92 69 02 43 26 4B 9A 61 04 E0 25 4A ...  returns 0x00 (0000ms, 0882ms total)
T1A98 016:154 JLINK_Step() -- Read from C cache (2 bytes @ 0x08001E1A) -- CPU_ReadMem(64 bytes @ 0x08001E80) -- Updating C cache (64 bytes @ 0x08001E80) -- Read from C cache (4 bytes @ 0x08001EBC) -- Simulated  returns 0x00 (0001ms, 0883ms total)
T1A98 016:155 JLINK_ReadReg(R15)  returns 0x08001E1C (0000ms, 0883ms total)
T1A98 016:155 JLINK_ReadReg(XPSR)  returns 0x21000000 (0000ms, 0883ms total)
T1A98 016:155 JLINK_Step() -- Read from C cache (2 bytes @ 0x08001E1C) -- CPU_ReadMem(4 bytes @ 0x40021018) -- Simulated  returns 0x00 (0001ms, 0884ms total)
T1A98 016:156 JLINK_ReadReg(R15)  returns 0x08001E1E (0000ms, 0884ms total)
T1A98 016:156 JLINK_ReadReg(XPSR)  returns 0x21000000 (0000ms, 0884ms total)
T1A98 016:156 JLINK_Step() -- Read from C cache (2 bytes @ 0x08001E1E) -- Simulated  returns 0x00 (0000ms, 0884ms total)
T1A98 016:156 JLINK_ReadReg(R15)  returns 0x08001E20 (0000ms, 0884ms total)
T1A98 016:156 JLINK_ReadReg(XPSR)  returns 0x21000000 (0000ms, 0884ms total)
T1A98 016:157 JLINK_Step() -- Read from C cache (2 bytes @ 0x08001E20) -- Read from C cache (4 bytes @ 0x08001EBC) -- Simulated  returns 0x00 (0000ms, 0884ms total)
T1A98 016:157 JLINK_ReadReg(R15)  returns 0x08001E22 (0000ms, 0884ms total)
T1A98 016:157 JLINK_ReadReg(XPSR)  returns 0x21000000 (0000ms, 0884ms total)
T1A98 016:157 JLINK_Step() -- Read from C cache (2 bytes @ 0x08001E22) -- CPU_WriteMem(4 bytes @ 0x40021018) -- Simulated  returns 0x00 (0001ms, 0885ms total)
T1A98 016:158 JLINK_ReadReg(R15)  returns 0x08001E24 (0000ms, 0885ms total)
T1A98 016:158 JLINK_ReadReg(XPSR)  returns 0x21000000 (0000ms, 0885ms total)
T1A98 016:158 JLINK_Step() -- Read from C cache (2 bytes @ 0x08001E24) -- Simulated  returns 0x00 (0000ms, 0885ms total)
T1A98 016:158 JLINK_ReadReg(R15)  returns 0x08001E30 (0000ms, 0885ms total)
T1A98 016:158 JLINK_ReadReg(XPSR)  returns 0x21000000 (0000ms, 0885ms total)
T1A98 016:159 JLINK_ReadReg(R0)  returns 0x0000527D (0000ms, 0885ms total)
T1A98 016:159 JLINK_ReadReg(R1)  returns 0x00000001 (0000ms, 0885ms total)
T1A98 016:159 JLINK_ReadReg(R2)  returns 0x0000527D (0000ms, 0885ms total)
T1A98 016:159 JLINK_ReadReg(R3)  returns 0x40021000 (0000ms, 0885ms total)
T1A98 016:159 JLINK_ReadReg(R4)  returns 0x00000000 (0000ms, 0885ms total)
T1A98 016:159 JLINK_ReadReg(R5)  returns 0x20001524 (0000ms, 0885ms total)
T1A98 016:159 JLINK_ReadReg(R6)  returns 0x00000000 (0000ms, 0885ms total)
T1A98 016:159 JLINK_ReadReg(R7)  returns 0x00000000 (0000ms, 0885ms total)
T1A98 016:159 JLINK_ReadReg(R8)  returns 0x00000000 (0000ms, 0885ms total)
T1A98 016:159 JLINK_ReadReg(R9)  returns 0x20000160 (0000ms, 0885ms total)
T1A98 016:159 JLINK_ReadReg(R10)  returns 0x08002394 (0000ms, 0885ms total)
T1A98 016:159 JLINK_ReadReg(R11)  returns 0x00000000 (0000ms, 0885ms total)
T1A98 016:159 JLINK_ReadReg(R12)  returns 0x20001564 (0000ms, 0885ms total)
T1A98 016:159 JLINK_ReadReg(R13)  returns 0x20001D78 (0000ms, 0885ms total)
T1A98 016:159 JLINK_ReadReg(R14)  returns 0x080009E3 (0000ms, 0885ms total)
T1A98 016:159 JLINK_ReadReg(R15)  returns 0x08001E30 (0000ms, 0885ms total)
T1A98 016:159 JLINK_ReadReg(XPSR)  returns 0x21000000 (0000ms, 0885ms total)
T1A98 016:159 JLINK_ReadReg(MSP)  returns 0x20001D78 (0000ms, 0885ms total)
T1A98 016:159 JLINK_ReadReg(PSP)  returns 0x20000800 (0000ms, 0885ms total)
T1A98 016:159 JLINK_ReadReg(CFBP)  returns 0x00000000 (0000ms, 0885ms total)
T1B7C 016:163 JLINK_ReadMem (0x20001D7C, 0x0004 Bytes, ...) -- Read from C cache (4 bytes @ 0x20001D7C) -- Data:  29 0A 00 08  returns 0x00 (0001ms, 0886ms total)
T1B7C 016:164 JLINK_ReadMem (0x20001D78, 0x0004 Bytes, ...) -- Read from C cache (4 bytes @ 0x20001D78) -- Data:  00 00 00 00  returns 0x00 (0000ms, 0886ms total)
T1B7C 016:164 JLINK_ReadMem (0x20001D84, 0x0004 Bytes, ...) -- Read from C cache (4 bytes @ 0x20001D84) -- Data:  BB 0B 00 08  returns 0x00 (0000ms, 0886ms total)
T1B7C 016:164 JLINK_ReadMem (0x20001D80, 0x0004 Bytes, ...) -- Read from C cache (4 bytes @ 0x20001D80) -- Data:  00 00 00 00  returns 0x00 (0000ms, 0886ms total)
T1B7C 016:164 JLINK_ReadMemU32(0xE0001004, 0x0001 Items, ...) -- Data:  A8 47 01 00  returns 0x01 (0000ms, 0886ms total)
T1B7C 016:170 JLINK_ReadMem (0x08001E26, 0x0002 Bytes, ...) -- Read from C cache (2 bytes @ 0x08001E26) -- Data:  25 4A  returns 0x00 (0000ms, 0886ms total)
T1B7C 016:170 JLINK_ReadMem (0x08001E28, 0x003C Bytes, ...) -- Read from C cache (60 bytes @ 0x08001E28) -- Data:  92 69 82 43 23 4B 9A 61 70 47 29 B1 21 4A D2 69 ...  returns 0x00 (0000ms, 0886ms total)
T1A98 016:377 JLINK_Step() -- Read from C cache (2 bytes @ 0x08001E30) -- Simulated  returns 0x00 (0002ms, 0888ms total)
T1A98 016:379 JLINK_ReadReg(R15)  returns 0x080009E2 (0000ms, 0888ms total)
T1A98 016:379 JLINK_ReadReg(XPSR)  returns 0x21000000 (0000ms, 0888ms total)
T1A98 016:379 JLINK_ReadReg(R0)  returns 0x0000527D (0000ms, 0888ms total)
T1A98 016:379 JLINK_ReadReg(R1)  returns 0x00000001 (0000ms, 0888ms total)
T1A98 016:379 JLINK_ReadReg(R2)  returns 0x0000527D (0000ms, 0888ms total)
T1A98 016:379 JLINK_ReadReg(R3)  returns 0x40021000 (0000ms, 0888ms total)
T1A98 016:379 JLINK_ReadReg(R4)  returns 0x00000000 (0000ms, 0888ms total)
T1A98 016:379 JLINK_ReadReg(R5)  returns 0x20001524 (0000ms, 0888ms total)
T1A98 016:379 JLINK_ReadReg(R6)  returns 0x00000000 (0000ms, 0888ms total)
T1A98 016:379 JLINK_ReadReg(R7)  returns 0x00000000 (0000ms, 0888ms total)
T1A98 016:379 JLINK_ReadReg(R8)  returns 0x00000000 (0000ms, 0888ms total)
T1A98 016:379 JLINK_ReadReg(R9)  returns 0x20000160 (0000ms, 0888ms total)
T1A98 016:379 JLINK_ReadReg(R10)  returns 0x08002394 (0000ms, 0888ms total)
T1A98 016:379 JLINK_ReadReg(R11)  returns 0x00000000 (0000ms, 0888ms total)
T1A98 016:379 JLINK_ReadReg(R12)  returns 0x20001564 (0000ms, 0888ms total)
T1A98 016:379 JLINK_ReadReg(R13)  returns 0x20001D78 (0001ms, 0889ms total)
T1A98 016:380 JLINK_ReadReg(R14)  returns 0x080009E3 (0000ms, 0889ms total)
T1A98 016:380 JLINK_ReadReg(R15)  returns 0x080009E2 (0000ms, 0889ms total)
T1A98 016:380 JLINK_ReadReg(XPSR)  returns 0x21000000 (0000ms, 0889ms total)
T1A98 016:380 JLINK_ReadReg(MSP)  returns 0x20001D78 (0000ms, 0889ms total)
T1A98 016:380 JLINK_ReadReg(PSP)  returns 0x20000800 (0000ms, 0889ms total)
T1A98 016:380 JLINK_ReadReg(CFBP)  returns 0x00000000 (0000ms, 0889ms total)
T1B7C 016:388 JLINK_ReadMem (0x20001D7C, 0x0004 Bytes, ...) -- Read from C cache (4 bytes @ 0x20001D7C) -- Data:  29 0A 00 08  returns 0x00 (0000ms, 0889ms total)
T1B7C 016:388 JLINK_ReadMem (0x20001D78, 0x0004 Bytes, ...) -- Read from C cache (4 bytes @ 0x20001D78) -- Data:  00 00 00 00  returns 0x00 (0000ms, 0889ms total)
T1B7C 016:388 JLINK_ReadMem (0x20001D84, 0x0004 Bytes, ...) -- Read from C cache (4 bytes @ 0x20001D84) -- Data:  BB 0B 00 08  returns 0x00 (0000ms, 0889ms total)
T1B7C 016:388 JLINK_ReadMem (0x20001D80, 0x0004 Bytes, ...) -- Read from C cache (4 bytes @ 0x20001D80) -- Data:  00 00 00 00  returns 0x00 (0000ms, 0889ms total)
T1B7C 016:397 JLINK_ReadMemU32(0xE0001004, 0x0001 Items, ...) -- Data:  A8 47 01 00  returns 0x01 (0000ms, 0889ms total)
T1B7C 016:401 JLINK_ReadMem (0x080009DA, 0x0002 Bytes, ...) -- Read from C cache (2 bytes @ 0x080009DA) -- Data:  45 F2  returns 0x00 (0000ms, 0889ms total)
T1B7C 016:401 JLINK_ReadMem (0x080009DC, 0x003C Bytes, ...) -- CPU_ReadMem(64 bytes @ 0x08000A00) -- Updating C cache (64 bytes @ 0x08000A00) -- Read from C cache (60 bytes @ 0x080009DC) -- Data:  7D 20 01 F0 1B FA 01 21 C5 48 01 F0 24 FA 01 21 ...  returns 0x00 (0002ms, 0891ms total)
T1A98 017:072 JLINK_Step() -- Read from C cache (2 bytes @ 0x080009E2) -- Simulated  returns 0x00 (0002ms, 0893ms total)
T1A98 017:074 JLINK_ReadReg(R15)  returns 0x080009E4 (0000ms, 0893ms total)
T1A98 017:074 JLINK_ReadReg(XPSR)  returns 0x21000000 (0000ms, 0893ms total)
T1A98 017:074 JLINK_Step() -- Read from C cache (2 bytes @ 0x080009E4) -- CPU_ReadMem(64 bytes @ 0x08000CC0) -- Updating C cache (64 bytes @ 0x08000CC0) -- Read from C cache (4 bytes @ 0x08000CFC) -- Simulated  returns 0x00 (0002ms, 0895ms total)
T1A98 017:076 JLINK_ReadReg(R15)  returns 0x080009E6 (0000ms, 0895ms total)
T1A98 017:076 JLINK_ReadReg(XPSR)  returns 0x21000000 (0000ms, 0895ms total)
T1A98 017:076 JLINK_Step() -- Read from C cache (2 bytes @ 0x080009E6) -- Read from C cache (2 bytes @ 0x080009E8) -- Simulated  returns 0x00 (0000ms, 0895ms total)
T1A98 017:076 JLINK_ReadReg(R15)  returns 0x08001E32 (0000ms, 0895ms total)
T1A98 017:077 JLINK_ReadReg(XPSR)  returns 0x21000000 (0000ms, 0896ms total)
T1A98 017:077 JLINK_ReadReg(R0)  returns 0x00040005 (0000ms, 0896ms total)
T1A98 017:077 JLINK_ReadReg(R1)  returns 0x00000001 (0000ms, 0896ms total)
T1A98 017:077 JLINK_ReadReg(R2)  returns 0x0000527D (0000ms, 0896ms total)
T1A98 017:077 JLINK_ReadReg(R3)  returns 0x40021000 (0000ms, 0896ms total)
T1A98 017:077 JLINK_ReadReg(R4)  returns 0x00000000 (0000ms, 0896ms total)
T1A98 017:077 JLINK_ReadReg(R5)  returns 0x20001524 (0000ms, 0896ms total)
T1A98 017:077 JLINK_ReadReg(R6)  returns 0x00000000 (0000ms, 0896ms total)
T1A98 017:077 JLINK_ReadReg(R7)  returns 0x00000000 (0000ms, 0896ms total)
T1A98 017:077 JLINK_ReadReg(R8)  returns 0x00000000 (0000ms, 0896ms total)
T1A98 017:077 JLINK_ReadReg(R9)  returns 0x20000160 (0000ms, 0896ms total)
T1A98 017:077 JLINK_ReadReg(R10)  returns 0x08002394 (0000ms, 0896ms total)
T1A98 017:077 JLINK_ReadReg(R11)  returns 0x00000000 (0000ms, 0896ms total)
T1A98 017:077 JLINK_ReadReg(R12)  returns 0x20001564 (0000ms, 0896ms total)
T1A98 017:077 JLINK_ReadReg(R13)  returns 0x20001D78 (0000ms, 0896ms total)
T1A98 017:077 JLINK_ReadReg(R14)  returns 0x080009EB (0000ms, 0896ms total)
T1A98 017:077 JLINK_ReadReg(R15)  returns 0x08001E32 (0000ms, 0896ms total)
T1A98 017:077 JLINK_ReadReg(XPSR)  returns 0x21000000 (0000ms, 0896ms total)
T1A98 017:077 JLINK_ReadReg(MSP)  returns 0x20001D78 (0000ms, 0896ms total)
T1A98 017:077 JLINK_ReadReg(PSP)  returns 0x20000800 (0000ms, 0896ms total)
T1A98 017:077 JLINK_ReadReg(CFBP)  returns 0x00000000 (0000ms, 0896ms total)
T1B7C 017:084 JLINK_ReadMem (0x20001D7C, 0x0004 Bytes, ...) -- Read from C cache (4 bytes @ 0x20001D7C) -- Data:  29 0A 00 08  returns 0x00 (0000ms, 0896ms total)
T1B7C 017:084 JLINK_ReadMem (0x20001D78, 0x0004 Bytes, ...) -- Read from C cache (4 bytes @ 0x20001D78) -- Data:  00 00 00 00  returns 0x00 (0000ms, 0896ms total)
T1B7C 017:084 JLINK_ReadMem (0x20001D84, 0x0004 Bytes, ...) -- Read from C cache (4 bytes @ 0x20001D84) -- Data:  BB 0B 00 08  returns 0x00 (0000ms, 0896ms total)
T1B7C 017:084 JLINK_ReadMem (0x20001D80, 0x0004 Bytes, ...) -- Read from C cache (4 bytes @ 0x20001D80) -- Data:  00 00 00 00  returns 0x00 (0000ms, 0896ms total)
T1B7C 017:094 JLINK_ReadMemU32(0xE0001004, 0x0001 Items, ...) -- Data:  A8 47 01 00  returns 0x01 (0000ms, 0896ms total)
T1B7C 017:101 JLINK_ReadMem (0x08001E30, 0x003C Bytes, ...) -- Read from C cache (60 bytes @ 0x08001E30) -- Data:  70 47 29 B1 21 4A D2 69 02 43 20 4B DA 61 04 E0 ...  returns 0x00 (0000ms, 0896ms total)
T1A98 017:784 JLINK_Step() -- Read from C cache (2 bytes @ 0x08001E32) -- Simulated  returns 0x00 (0002ms, 0898ms total)
T1A98 017:786 JLINK_ReadReg(R15)  returns 0x08001E34 (0000ms, 0898ms total)
T1A98 017:786 JLINK_ReadReg(XPSR)  returns 0x21000000 (0000ms, 0898ms total)
T1A98 017:786 JLINK_ReadReg(R0)  returns 0x00040005 (0000ms, 0898ms total)
T1A98 017:786 JLINK_ReadReg(R1)  returns 0x00000001 (0000ms, 0898ms total)
T1A98 017:786 JLINK_ReadReg(R2)  returns 0x0000527D (0000ms, 0898ms total)
T1A98 017:786 JLINK_ReadReg(R3)  returns 0x40021000 (0000ms, 0898ms total)
T1A98 017:786 JLINK_ReadReg(R4)  returns 0x00000000 (0000ms, 0898ms total)
T1A98 017:786 JLINK_ReadReg(R5)  returns 0x20001524 (0000ms, 0898ms total)
T1A98 017:786 JLINK_ReadReg(R6)  returns 0x00000000 (0000ms, 0898ms total)
T1A98 017:786 JLINK_ReadReg(R7)  returns 0x00000000 (0000ms, 0898ms total)
T1A98 017:786 JLINK_ReadReg(R8)  returns 0x00000000 (0000ms, 0898ms total)
T1A98 017:786 JLINK_ReadReg(R9)  returns 0x20000160 (0000ms, 0898ms total)
T1A98 017:786 JLINK_ReadReg(R10)  returns 0x08002394 (0000ms, 0898ms total)
T1A98 017:786 JLINK_ReadReg(R11)  returns 0x00000000 (0000ms, 0898ms total)
T1A98 017:787 JLINK_ReadReg(R12)  returns 0x20001564 (0000ms, 0899ms total)
T1A98 017:787 JLINK_ReadReg(R13)  returns 0x20001D78 (0000ms, 0899ms total)
T1A98 017:787 JLINK_ReadReg(R14)  returns 0x080009EB (0000ms, 0899ms total)
T1A98 017:787 JLINK_ReadReg(R15)  returns 0x08001E34 (0000ms, 0899ms total)
T1A98 017:787 JLINK_ReadReg(XPSR)  returns 0x21000000 (0000ms, 0899ms total)
T1A98 017:787 JLINK_ReadReg(MSP)  returns 0x20001D78 (0000ms, 0899ms total)
T1A98 017:787 JLINK_ReadReg(PSP)  returns 0x20000800 (0000ms, 0899ms total)
T1A98 017:787 JLINK_ReadReg(CFBP)  returns 0x00000000 (0000ms, 0899ms total)
T1B7C 017:788 JLINK_ReadMem (0x20001D7C, 0x0004 Bytes, ...) -- Read from C cache (4 bytes @ 0x20001D7C) -- Data:  29 0A 00 08  returns 0x00 (0000ms, 0899ms total)
T1B7C 017:788 JLINK_ReadMem (0x20001D78, 0x0004 Bytes, ...) -- Read from C cache (4 bytes @ 0x20001D78) -- Data:  00 00 00 00  returns 0x00 (0000ms, 0899ms total)
T1B7C 017:788 JLINK_ReadMem (0x20001D84, 0x0004 Bytes, ...) -- Read from C cache (4 bytes @ 0x20001D84) -- Data:  BB 0B 00 08  returns 0x00 (0000ms, 0899ms total)
T1B7C 017:788 JLINK_ReadMem (0x20001D80, 0x0004 Bytes, ...) -- Read from C cache (4 bytes @ 0x20001D80) -- Data:  00 00 00 00  returns 0x00 (0000ms, 0899ms total)
T1B7C 017:788 JLINK_ReadMemU32(0xE0001004, 0x0001 Items, ...) -- Data:  A8 47 01 00  returns 0x01 (0000ms, 0899ms total)
T1B7C 017:793 JLINK_ReadMem (0x08001E32, 0x0002 Bytes, ...) -- Read from C cache (2 bytes @ 0x08001E32) -- Data:  29 B1  returns 0x00 (0000ms, 0899ms total)
T1B7C 017:793 JLINK_ReadMem (0x08001E34, 0x003C Bytes, ...) -- Read from C cache (60 bytes @ 0x08001E34) -- Data:  21 4A D2 69 02 43 20 4B DA 61 04 E0 1E 4A D2 69 ...  returns 0x00 (0000ms, 0899ms total)
T1A98 018:105 JLINK_Step() -- Read from C cache (2 bytes @ 0x08001E34) -- Read from C cache (4 bytes @ 0x08001EBC) -- Simulated  returns 0x00 (0002ms, 0901ms total)
T1A98 018:107 JLINK_ReadReg(R15)  returns 0x08001E36 (0000ms, 0901ms total)
T1A98 018:107 JLINK_ReadReg(XPSR)  returns 0x21000000 (0000ms, 0901ms total)
T1A98 018:107 JLINK_Step() -- Read from C cache (2 bytes @ 0x08001E36) -- CPU_ReadMem(4 bytes @ 0x4002101C) -- Simulated  returns 0x00 (0001ms, 0902ms total)
T1A98 018:108 JLINK_ReadReg(R15)  returns 0x08001E38 (0000ms, 0902ms total)
T1A98 018:108 JLINK_ReadReg(XPSR)  returns 0x21000000 (0000ms, 0902ms total)
T1A98 018:108 JLINK_Step() -- Read from C cache (2 bytes @ 0x08001E38) -- Simulated  returns 0x00 (0000ms, 0902ms total)
T1A98 018:108 JLINK_ReadReg(R15)  returns 0x08001E3A (0000ms, 0902ms total)
T1A98 018:108 JLINK_ReadReg(XPSR)  returns 0x21000000 (0000ms, 0902ms total)
T1A98 018:108 JLINK_Step() -- Read from C cache (2 bytes @ 0x08001E3A) -- Read from C cache (4 bytes @ 0x08001EBC) -- Simulated  returns 0x00 (0000ms, 0902ms total)
T1A98 018:108 JLINK_ReadReg(R15)  returns 0x08001E3C (0000ms, 0902ms total)
T1A98 018:108 JLINK_ReadReg(XPSR)  returns 0x21000000 (0000ms, 0902ms total)
T1A98 018:108 JLINK_Step() -- Read from C cache (2 bytes @ 0x08001E3C) -- CPU_WriteMem(4 bytes @ 0x4002101C) -- Simulated  returns 0x00 (0002ms, 0904ms total)
T1A98 018:110 JLINK_ReadReg(R15)  returns 0x08001E3E (0000ms, 0904ms total)
T1A98 018:110 JLINK_ReadReg(XPSR)  returns 0x21000000 (0000ms, 0904ms total)
T1A98 018:110 JLINK_Step() -- Read from C cache (2 bytes @ 0x08001E3E) -- Simulated  returns 0x00 (0000ms, 0904ms total)
T1A98 018:110 JLINK_ReadReg(R15)  returns 0x08001E4A (0000ms, 0904ms total)
T1A98 018:110 JLINK_ReadReg(XPSR)  returns 0x21000000 (0000ms, 0904ms total)
T1A98 018:110 JLINK_ReadReg(R0)  returns 0x00040005 (0000ms, 0904ms total)
T1A98 018:110 JLINK_ReadReg(R1)  returns 0x00000001 (0000ms, 0904ms total)
T1A98 018:110 JLINK_ReadReg(R2)  returns 0x00040005 (0000ms, 0904ms total)
T1A98 018:110 JLINK_ReadReg(R3)  returns 0x40021000 (0000ms, 0904ms total)
T1A98 018:110 JLINK_ReadReg(R4)  returns 0x00000000 (0000ms, 0904ms total)
T1A98 018:110 JLINK_ReadReg(R5)  returns 0x20001524 (0001ms, 0905ms total)
T1A98 018:111 JLINK_ReadReg(R6)  returns 0x00000000 (0000ms, 0905ms total)
T1A98 018:111 JLINK_ReadReg(R7)  returns 0x00000000 (0000ms, 0905ms total)
T1A98 018:111 JLINK_ReadReg(R8)  returns 0x00000000 (0000ms, 0905ms total)
T1A98 018:111 JLINK_ReadReg(R9)  returns 0x20000160 (0000ms, 0905ms total)
T1A98 018:111 JLINK_ReadReg(R10)  returns 0x08002394 (0000ms, 0905ms total)
T1A98 018:111 JLINK_ReadReg(R11)  returns 0x00000000 (0000ms, 0905ms total)
T1A98 018:111 JLINK_ReadReg(R12)  returns 0x20001564 (0000ms, 0905ms total)
T1A98 018:111 JLINK_ReadReg(R13)  returns 0x20001D78 (0000ms, 0905ms total)
T1A98 018:111 JLINK_ReadReg(R14)  returns 0x080009EB (0000ms, 0905ms total)
T1A98 018:111 JLINK_ReadReg(R15)  returns 0x08001E4A (0000ms, 0905ms total)
T1A98 018:111 JLINK_ReadReg(XPSR)  returns 0x21000000 (0000ms, 0905ms total)
T1A98 018:111 JLINK_ReadReg(MSP)  returns 0x20001D78 (0000ms, 0905ms total)
T1A98 018:111 JLINK_ReadReg(PSP)  returns 0x20000800 (0000ms, 0905ms total)
